T1530 171:041 SEGGER J-Link V6.44e Log File (0000ms, 5442ms total)
T1530 171:041 DLL Compiled: Apr  5 2019 16:15:03 (0000ms, 5442ms total)
T1530 171:041 Logging started @ 2019-08-09 11:43 (0000ms, 5442ms total)
T1530 171:042 JLINK_SetWarnOutHandler(...) (0000ms, 5442ms total)
T1530 171:042 JLINK_OpenEx(...)
Firmware: J-Link V9 compiled Oct 25 2018 11:46:07
Hardware: V9.40
S/N: 59406895
Feature(s): RDI, GDB, FlashDL, FlashBP, JFlash
TELNET listener socket opened on port 19021WEBSRV 
Starting webserver (0018ms, 5460ms total)
T1530 171:042 WEBSRV Webserver running on local port 19080 (0018ms, 5460ms total)
T1530 171:042   returns O.K. (0018ms, 5460ms total)
T1530 171:060 JLINK_GetEmuCaps()  returns 0xB9FF7BBF (0000ms, 5460ms total)
T1530 171:060 JLINK_TIF_GetAvailable(...) (0000ms, 5460ms total)
T1530 171:060 JLINK_SetErrorOutHandler(...) (0000ms, 5460ms total)
T1530 171:060 JLINK_ExecCommand("ProjectFile = "D:\Desktop\RM2019-Group8\ÏÂÎ»»ú\JLinkSettings.ini"", ...).   returns 0x00 (0001ms, 5461ms total)
T1530 171:061 JLINK_ExecCommand("Device = STM32F427IITx", ...). Device "STM32F427II" selected.  returns 0x00 (0001ms, 5462ms total)
T1530 171:062 JLINK_ExecCommand("DisableConnectionTimeout", ...).   returns 0x01 (0000ms, 5462ms total)
T1530 171:062 JLINK_GetHardwareVersion()  returns 0x16F30 (0000ms, 5462ms total)
T1530 171:062 JLINK_GetDLLVersion()  returns 64405 (0000ms, 5462ms total)
T1530 171:062 JLINK_GetFirmwareString(...) (0000ms, 5462ms total)
T1530 171:062 JLINK_GetDLLVersion()  returns 64405 (0000ms, 5462ms total)
T1530 171:062 JLINK_GetCompileDateTime() (0000ms, 5462ms total)
T1530 171:062 JLINK_GetFirmwareString(...) (0000ms, 5462ms total)
T1530 171:062 JLINK_GetHardwareVersion()  returns 0x16F30 (0001ms, 5463ms total)
T1530 171:063 JLINK_TIF_Select(JLINKARM_TIF_SWD)  returns 0x00 (0000ms, 5463ms total)
T1530 171:063 JLINK_SetSpeed(5000) (0000ms, 5463ms total)
T1530 171:063 JLINK_GetId() >0x10B TIF>Found SW-DP with ID 0x2BA01477 >0x0D TIF> >0x28 TIF> >0x0D TIF> >0x28 TIF> >0x0D TIF> >0x28 TIF> >0x0D TIF> >0x28 TIF> >0x0D TIF> >0x21 TIF> >0x0D TIF> >0x28 TIF> >0x0D TIF> >0x28 TIF> >0x0D TIF> >0x28 TIF> >0x0D TIF> >0x21 TIF> >0x0D TIF> >0x21 TIF> >0x0D TIF> >0x28 TIF> >0x0D TIF> >0x21 TIF> >0x0D TIF> >0x21 TIF> >0x0D TIF> >0x28 TIF> >0x0D TIF> >0x21 TIF> >0x0D TIF> >0x21 TIF> >0x0D TIF> >0x28 TIF> >0x0D TIF> >0x21 TIF> >0x0D TIF> >0x21 TIF> >0x0D TIF> >0x28 TIF>
 >0x0D TIF> >0x21 TIF> >0x0D TIF> >0x21 TIF> >0x0D TIF> >0x28 TIF> >0x0D TIF> >0x21 TIF> >0x0D TIF> >0x21 TIF> >0x0D TIF> >0x28 TIF> >0x0D TIF> >0x21 TIF> >0x0D TIF> >0x21 TIF> >0x10B TIF>Found SW-DP with ID 0x2BA01477 >0x0D TIF> >0x28 TIF> >0x0D TIF> >0x28 TIF> >0x0D TIF> >0x28 TIF> >0x0D TIF> >0x28 TIF> >0x0D TIF> >0x21 TIF> >0x0D TIF> >0x28 TIF>Scanning AP map to find all available APs >0x0D TIF> >0x28 TIF> >0x0D TIF> >0x21 TIF> >0x0D TIF> >0x21 TIF> >0x0D TIF> >0x28 TIF> >0x0D TIF> >0x21 TIF>
 >0x0D TIF> >0x21 TIF>AP[1]: Stopped AP scan as end of AP map has been reachedAP[0]: AHB-AP (IDR: 0x24770011)Iterating through AP map to find AHB-AP to use >0x42 TIF> >0x28 TIF> >0x0D TIF> >0x28 TIF> >0x0D TIF> >0x21 TIF> >0x0D TIF> >0x21 TIF> >0x42 TIF> >0x28 TIF> >0x0D TIF> >0x28 TIF> >0x0D TIF> >0x28 TIF> >0x0D TIF> >0x21 TIF> >0x0D TIF> >0x21 TIF>AP[0]: Core foundAP[0]: AHB-AP ROM base: 0xE00FF000 >0x0D TIF> >0x28 TIF> >0x0D TIF> >0x28 TIF> >0x0D TIF> >0x28 TIF> >0x0D TIF> >0x21 TIF> >0x0D TIF>
 >0x21 TIF>CPUID register: 0x410FC241. Implementer code: 0x41 (ARM)Found Cortex-M4 r0p1, Little endian. -- Max. mem block: 0x00010F28 -- CPU_ReadMem(4 bytes @ 0xE000EDF0) -- CPU_WriteMem(4 bytes @ 0xE000EDF0) -- CPU_ReadMem(4 bytes @ 0xE0002000)FPUnit: 6 code (BP) slots and 2 literal slots -- CPU_ReadMem(4 bytes @ 0xE000EDFC) -- CPU_WriteMem(4 bytes @ 0xE000EDFC) -- CPU_ReadMem(4 bytes @ 0xE0001000) -- CPU_WriteMem(4 bytes @ 0xE0001000) -- CPU_ReadMem(4 bytes @ 0xE000ED88)
 -- CPU_WriteMem(4 bytes @ 0xE000ED88) -- CPU_ReadMem(4 bytes @ 0xE000ED88) -- CPU_WriteMem(4 bytes @ 0xE000ED88)CoreSight components:ROMTbl[0] @ E00FF000 -- CPU_ReadMem(16 bytes @ 0xE00FF000) -- CPU_ReadMem(16 bytes @ 0xE000EFF0) -- CPU_ReadMem(16 bytes @ 0xE000EFE0)ROMTbl[0][0]: E000E000, CID: B105E00D, PID: 000BB00C SCS-M7 -- CPU_ReadMem(16 bytes @ 0xE0001FF0) -- CPU_ReadMem(16 bytes @ 0xE0001FE0)ROMTbl[0][1]: E0001000, CID: B105E00D, PID: 003BB002 DWT -- CPU_ReadMem(16 bytes @ 0xE0002FF0)
 -- CPU_ReadMem(16 bytes @ 0xE0002FE0)ROMTbl[0][2]: E0002000, CID: B105E00D, PID: 002BB003 FPB -- CPU_ReadMem(16 bytes @ 0xE0000FF0) -- CPU_ReadMem(16 bytes @ 0xE0000FE0)ROMTbl[0][3]: E0000000, CID: B105E00D, PID: 003BB001 ITM -- CPU_ReadMem(16 bytes @ 0xE00FF010) -- CPU_ReadMem(16 bytes @ 0xE0040FF0) -- CPU_ReadMem(16 bytes @ 0xE0040FE0)ROMTbl[0][4]: E0040000, CID: B105900D, PID: 000BB9A1 TPIU -- CPU_ReadMem(16 bytes @ 0xE0041FF0) -- CPU_ReadMem(16 bytes @ 0xE0041FE0)
ROMTbl[0][5]: E0041000, CID: B105900D, PID: 000BB925 ETM >0x0D TIF> >0x21 TIF>  returns 0x2BA01477 (0124ms, 5587ms total)
T1530 171:187 JLINK_GetDLLVersion()  returns 64405 (0000ms, 5587ms total)
T1530 171:187 JLINK_CORE_GetFound()  returns 0xE0000FF (0000ms, 5587ms total)
T1530 171:187 JLINK_GetDebugInfo(0x100 = JLINKARM_ROM_TABLE_ADDR_INDEX) -- Value=0xE00FF000  returns 0x00 (0000ms, 5587ms total)
T1530 171:187 JLINK_GetDebugInfo(0x100 = JLINKARM_ROM_TABLE_ADDR_INDEX) -- Value=0xE00FF000  returns 0x00 (0000ms, 5587ms total)
T1530 171:187 JLINK_GetDebugInfo(0x101 = JLINKARM_DEBUG_INFO_ETM_ADDR_INDEX) -- Value=0xE0041000  returns 0x00 (0000ms, 5587ms total)
T1530 171:187 JLINK_ReadMemEx(0xE0041FD0, 0x0020 Bytes, ..., Flags = 0x02000004) -- CPU_ReadMem(32 bytes @ 0xE0041FD0) - Data: 04 00 00 00 00 00 00 00 00 00 00 00 00 00 00 00 ...  returns 0x20 (0000ms, 5587ms total)
T1530 171:187 JLINK_GetDebugInfo(0x102 = JLINKARM_DEBUG_INFO_MTB_ADDR_INDEX) -- Value=0x00000000  returns 0x00 (0000ms, 5587ms total)
T1530 171:187 JLINK_GetDebugInfo(0x103 = JLINKARM_DEBUG_INFO_TPIU_ADDR_INDEX) -- Value=0xE0040000  returns 0x00 (0000ms, 5587ms total)
T1530 171:187 JLINK_GetDebugInfo(0x104 = JLINKARM_DEBUG_INFO_ITM_ADDR_INDEX) -- Value=0xE0000000  returns 0x00 (0000ms, 5587ms total)
T1530 171:187 JLINK_GetDebugInfo(0x105 = JLINKARM_DEBUG_INFO_DWT_ADDR_INDEX) -- Value=0xE0001000  returns 0x00 (0000ms, 5587ms total)
T1530 171:187 JLINK_GetDebugInfo(0x106 = JLINKARM_DEBUG_INFO_FPB_ADDR_INDEX) -- Value=0xE0002000  returns 0x00 (0000ms, 5587ms total)
T1530 171:187 JLINK_GetDebugInfo(0x107 = JLINKARM_DEBUG_INFO_NVIC_ADDR_INDEX) -- Value=0xE000E000  returns 0x00 (0000ms, 5587ms total)
T1530 171:187 JLINK_GetDebugInfo(0x10C = JLINKARM_DEBUG_INFO_DBG_ADDR_INDEX) -- Value=0xE000EDF0  returns 0x00 (0000ms, 5587ms total)
T1530 171:187 JLINK_GetDebugInfo(0x01 = Unknown) -- Value=0x00000001  returns 0x00 (0000ms, 5587ms total)
T1530 171:187 JLINK_ReadMemU32(0xE000ED00, 0x0001 Items, ...) -- CPU_ReadMem(4 bytes @ 0xE000ED00) - Data: 41 C2 0F 41  returns 1 (0001ms, 5588ms total)
T1530 171:188 JLINK_GetDebugInfo(0x10F = JLINKARM_DEBUG_INFO_HAS_CORTEX_M_SECURITY_EXT_INDEX) -- Value=0x00000000  returns 0x00 (0000ms, 5588ms total)
T1530 171:188 JLINK_SetResetType(JLINKARM_CM3_RESET_TYPE_NORMAL)  returns JLINKARM_CM3_RESET_TYPE_NORMAL (0000ms, 5588ms total)
T1530 171:188 JLINK_Reset() -- CPU is running -- CPU_WriteMem(4 bytes @ 0xE000EDF0) -- CPU is running -- CPU_WriteMem(4 bytes @ 0xE000EDFC)Reset: Halt core after reset via DEMCR.VC_CORERESET. >0x35 TIF>Reset: Reset device via AIRCR.SYSRESETREQ. -- CPU is running -- CPU_WriteMem(4 bytes @ 0xE000ED0C) >0x0D TIF> >0x28 TIF> -- CPU_ReadMem(4 bytes @ 0xE000EDF0) -- CPU_ReadMem(4 bytes @ 0xE000EDF0) -- CPU is running -- CPU_WriteMem(4 bytes @ 0xE000EDF0) -- CPU is running -- CPU_WriteMem(4 bytes @ 0xE000EDFC)
 -- CPU_ReadMem(4 bytes @ 0xE000EDF0) -- CPU_WriteMem(4 bytes @ 0xE0002000) -- CPU_ReadMem(4 bytes @ 0xE000EDFC) -- CPU_ReadMem(4 bytes @ 0xE0001000) (0062ms, 5650ms total)
T1530 171:251 JLINK_ReadReg(R15 (PC))  returns 0x080003B8 (0000ms, 5650ms total)
T1530 171:251 JLINK_ReadReg(XPSR)  returns 0x01000000 (0000ms, 5650ms total)
T1530 171:251 JLINK_Halt()  returns 0x00 (0000ms, 5650ms total)
T1530 171:251 JLINK_ReadMemU32(0xE000EDF0, 0x0001 Items, ...) -- CPU_ReadMem(4 bytes @ 0xE000EDF0) - Data: 03 00 03 00  returns 1 (0000ms, 5650ms total)
T1530 171:251 JLINK_WriteU32(0xE000EDF0, 0xA05F0003) -- CPU_WriteMem(4 bytes @ 0xE000EDF0)  returns 0 (0000ms, 5650ms total)
T1530 171:251 JLINK_WriteU32(0xE000EDFC, 0x01000000) -- CPU_WriteMem(4 bytes @ 0xE000EDFC)  returns 0 (0000ms, 5650ms total)
T1530 171:251 JLINK_GetHWStatus(...)  returns 0x00 (0001ms, 5651ms total)
T1530 171:252 JLINK_GetNumBPUnits(Type = 0xFFFFFF00)  returns 0x06 (0000ms, 5651ms total)
T1530 171:252 JLINK_GetNumBPUnits(Type = 0xF0)  returns 0x2000 (0000ms, 5651ms total)
T1530 171:252 JLINK_GetNumWPUnits()  returns 0x04 (0000ms, 5651ms total)
T1530 171:252 JLINK_GetSpeed()  returns 0xFA0 (0000ms, 5651ms total)
T1530 171:252 JLINK_ReadMemU32(0xE000E004, 0x0001 Items, ...) -- CPU_ReadMem(4 bytes @ 0xE000E004) - Data: 02 00 00 00  returns 1 (0000ms, 5651ms total)
T1530 171:252 JLINK_ReadMemU32(0xE000E004, 0x0001 Items, ...) -- CPU_ReadMem(4 bytes @ 0xE000E004) - Data: 02 00 00 00  returns 1 (0000ms, 5651ms total)
T1530 171:252 JLINK_WriteMemEx(0xE0001000, 0x001C Bytes, ..., Flags = 0x02000004) - Data: 01 00 00 00 00 00 00 00 00 00 00 00 00 00 00 00 ... -- CPU_WriteMem(28 bytes @ 0xE0001000)  returns 0x1C (0001ms, 5652ms total)
T1530 171:253 JLINK_ReadReg(R15 (PC))  returns 0x080003B8 (0000ms, 5652ms total)
T1530 171:253 JLINK_ReadReg(XPSR)  returns 0x01000000 (0000ms, 5652ms total)
T1530 171:256 JLINK_ReadMemEx(0xE0001004, 0x0004 Bytes, ..., Flags = 0x02000000) - Data: 00 00 00 00  returns 0x04 (0000ms, 5652ms total)
T1530 171:364 JLINK_SetResetType(JLINKARM_CM3_RESET_TYPE_NORMAL)  returns JLINKARM_CM3_RESET_TYPE_NORMAL (0000ms, 5652ms total)
T1530 171:364 JLINK_Reset() -- CPU_WriteMem(4 bytes @ 0xE000EDF0) -- CPU_WriteMem(4 bytes @ 0xE000EDFC)Reset: Halt core after reset via DEMCR.VC_CORERESET. >0x35 TIF>Reset: Reset device via AIRCR.SYSRESETREQ. -- CPU_WriteMem(4 bytes @ 0xE000ED0C) >0x0D TIF> >0x28 TIF> -- CPU_ReadMem(4 bytes @ 0xE000EDF0) -- CPU_ReadMem(4 bytes @ 0xE000EDF0) -- CPU_WriteMem(4 bytes @ 0xE000EDF0) -- CPU_WriteMem(4 bytes @ 0xE000EDFC) -- CPU_ReadMem(4 bytes @ 0xE000EDF0) -- CPU_WriteMem(4 bytes @ 0xE0002000)
 -- CPU_ReadMem(4 bytes @ 0xE000EDFC) -- CPU_ReadMem(4 bytes @ 0xE0001000) (0063ms, 5715ms total)
T1530 171:427 JLINK_ReadReg(R15 (PC))  returns 0x080003B8 (0000ms, 5715ms total)
T1530 171:427 JLINK_ReadReg(XPSR)  returns 0x01000000 (0000ms, 5715ms total)
T1530 171:880 JLINK_ReadMemEx(0x00000000, 0x003C Bytes, ..., Flags = 0x02000000) -- CPU_ReadMem(4 bytes @ 0x40023844) -- CPU_ReadMem(64 bytes @ 0x08000000) -- Updating C cache (64 bytes @ 0x08000000) -- Read from C cache (60 bytes @ 0x08000000) - Data: 80 C0 01 20 B9 03 00 08 89 5C 00 08 83 51 00 08 ...  returns 0x3C (0006ms, 5721ms total)
T1530 172:451 JLINK_ReadReg(R0)  returns 0x00000000 (0000ms, 5721ms total)
T1530 172:451 JLINK_ReadReg(R1)  returns 0x00000000 (0000ms, 5721ms total)
T1530 172:451 JLINK_ReadReg(R2)  returns 0x00000000 (0000ms, 5721ms total)
T1530 172:451 JLINK_ReadReg(R3)  returns 0x00000000 (0000ms, 5721ms total)
T1530 172:451 JLINK_ReadReg(R4)  returns 0x00000000 (0000ms, 5721ms total)
T1530 172:451 JLINK_ReadReg(R5)  returns 0x00000000 (0000ms, 5721ms total)
T1530 172:451 JLINK_ReadReg(R6)  returns 0x00000000 (0000ms, 5721ms total)
T1530 172:451 JLINK_ReadReg(R7)  returns 0x00000000 (0000ms, 5721ms total)
T1530 172:451 JLINK_ReadReg(R8)  returns 0x00000000 (0000ms, 5721ms total)
T1530 172:451 JLINK_ReadReg(R9)  returns 0x00000000 (0000ms, 5721ms total)
T1530 172:451 JLINK_ReadReg(R10)  returns 0x00000000 (0000ms, 5721ms total)
T1530 172:451 JLINK_ReadReg(R11)  returns 0x00000000 (0000ms, 5721ms total)
T1530 172:451 JLINK_ReadReg(R12)  returns 0x00000000 (0000ms, 5721ms total)
T1530 172:452 JLINK_ReadReg(R13 (SP))  returns 0x2001C080 (0000ms, 5721ms total)
T1530 172:452 JLINK_ReadReg(R14)  returns 0xFFFFFFFF (0000ms, 5721ms total)
T1530 172:452 JLINK_ReadReg(R15 (PC))  returns 0x080003B8 (0000ms, 5721ms total)
T1530 172:452 JLINK_ReadReg(XPSR)  returns 0x01000000 (0000ms, 5721ms total)
T1530 172:452 JLINK_ReadReg(MSP)  returns 0x2001C080 (0000ms, 5721ms total)
T1530 172:452 JLINK_ReadReg(PSP)  returns 0x00000000 (0000ms, 5721ms total)
T1530 172:452 JLINK_ReadReg(CFBP)  returns 0x00000000 (0000ms, 5721ms total)
T1530 172:452 JLINK_ReadReg(FPSCR)  returns 0x00000000 (0002ms, 5723ms total)
T1530 172:454 JLINK_ReadReg(FPS0)  returns 0x00000000 (0000ms, 5723ms total)
T1530 172:454 JLINK_ReadReg(FPS1)  returns 0x00000000 (0000ms, 5723ms total)
T1530 172:454 JLINK_ReadReg(FPS2)  returns 0x00000000 (0000ms, 5723ms total)
T1530 172:454 JLINK_ReadReg(FPS3)  returns 0x00000000 (0000ms, 5723ms total)
T1530 172:454 JLINK_ReadReg(FPS4)  returns 0x00000000 (0000ms, 5723ms total)
T1530 172:454 JLINK_ReadReg(FPS5)  returns 0x00000000 (0000ms, 5723ms total)
T1530 172:454 JLINK_ReadReg(FPS6)  returns 0x00000000 (0000ms, 5723ms total)
T1530 172:454 JLINK_ReadReg(FPS7)  returns 0x00000000 (0000ms, 5723ms total)
T1530 172:454 JLINK_ReadReg(FPS8)  returns 0x00000000 (0000ms, 5723ms total)
T1530 172:455 JLINK_ReadReg(FPS9)  returns 0x00000000 (0000ms, 5724ms total)
T1530 172:455 JLINK_ReadReg(FPS10)  returns 0x00000000 (0000ms, 5724ms total)
T1530 172:455 JLINK_ReadReg(FPS11)  returns 0x00000000 (0000ms, 5724ms total)
T1530 172:455 JLINK_ReadReg(FPS12)  returns 0x00000000 (0000ms, 5724ms total)
T1530 172:455 JLINK_ReadReg(FPS13)  returns 0x00000000 (0000ms, 5724ms total)
T1530 172:455 JLINK_ReadReg(FPS14)  returns 0x00000000 (0000ms, 5724ms total)
T1530 172:455 JLINK_ReadReg(FPS15)  returns 0x00000000 (0000ms, 5724ms total)
T1530 172:455 JLINK_ReadReg(FPS16)  returns 0x00000000 (0000ms, 5724ms total)
T1530 172:455 JLINK_ReadReg(FPS17)  returns 0x00000000 (0000ms, 5724ms total)
T1530 172:455 JLINK_ReadReg(FPS18)  returns 0x00000000 (0000ms, 5724ms total)
T1530 172:455 JLINK_ReadReg(FPS19)  returns 0x00000000 (0000ms, 5724ms total)
T1530 172:455 JLINK_ReadReg(FPS20)  returns 0x00000000 (0000ms, 5724ms total)
T1530 172:455 JLINK_ReadReg(FPS21)  returns 0x00000000 (0000ms, 5724ms total)
T1530 172:455 JLINK_ReadReg(FPS22)  returns 0x00000000 (0000ms, 5724ms total)
T1530 172:455 JLINK_ReadReg(FPS23)  returns 0x00000000 (0000ms, 5724ms total)
T1530 172:455 JLINK_ReadReg(FPS24)  returns 0x00000000 (0000ms, 5724ms total)
T1530 172:455 JLINK_ReadReg(FPS25)  returns 0x00000000 (0000ms, 5724ms total)
T1530 172:455 JLINK_ReadReg(FPS26)  returns 0x00000000 (0000ms, 5724ms total)
T1530 172:455 JLINK_ReadReg(FPS27)  returns 0x00000000 (0000ms, 5724ms total)
T1530 172:455 JLINK_ReadReg(FPS28)  returns 0x00000000 (0000ms, 5724ms total)
T1530 172:455 JLINK_ReadReg(FPS29)  returns 0x00000000 (0000ms, 5724ms total)
T1530 172:455 JLINK_ReadReg(FPS30)  returns 0x00000000 (0000ms, 5724ms total)
T1530 172:455 JLINK_ReadReg(FPS31)  returns 0x00000000 (0000ms, 5724ms total)
T1530 172:468 JLINK_ReadMemEx(0x20000EDC, 0x000F Bytes, ..., Flags = 0x02000000) -- CPU_ReadMem(64 bytes @ 0x20000EC0) -- Updating C cache (64 bytes @ 0x20000EC0) -- Read from C cache (15 bytes @ 0x20000EDC) - Data: FF 00 00 00 00 00 00 00 00 00 00 00 00 00 00  returns 0x0F (0001ms, 5725ms total)
T18C0 172:504 JLINK_ReadMemEx(0x080003B8, 0x0002 Bytes, ..., Flags = 0x02000000) -- CPU_ReadMem(64 bytes @ 0x08000380) -- Updating C cache (64 bytes @ 0x08000380) -- Read from C cache (2 bytes @ 0x080003B8) - Data: 09 48  returns 0x02 (0001ms, 5726ms total)
T18C0 172:505 JLINK_SetBPEx(Addr = 0x08007C50, Type = 0xFFFFFFF2)  returns 0x00000001 (0000ms, 5726ms total)
T18C0 172:505 JLINK_Go() -- CPU_WriteMem(4 bytes @ 0xE0002000) -- CPU_ReadMem(4 bytes @ 0xE0001000) -- CPU_WriteMem(4 bytes @ 0xE0002008) -- CPU_WriteMem(4 bytes @ 0xE000200C) -- CPU_WriteMem(4 bytes @ 0xE0002010) -- CPU_WriteMem(4 bytes @ 0xE0002014) -- CPU_WriteMem(4 bytes @ 0xE0002018) -- CPU_WriteMem(4 bytes @ 0xE000201C) -- CPU_WriteMem(4 bytes @ 0xE0001004) (0002ms, 5728ms total)
T18C0 172:608 JLINK_IsHalted()  returns TRUE (0002ms, 5730ms total)
T18C0 172:610 JLINK_Halt()  returns 0x00 (0000ms, 5728ms total)
T18C0 172:610 JLINK_IsHalted()  returns TRUE (0000ms, 5728ms total)
T18C0 172:610 JLINK_IsHalted()  returns TRUE (0000ms, 5728ms total)
T18C0 172:610 JLINK_IsHalted()  returns TRUE (0000ms, 5728ms total)
T18C0 172:610 JLINK_ReadReg(R15 (PC))  returns 0x08007C50 (0000ms, 5728ms total)
T18C0 172:610 JLINK_ReadReg(XPSR)  returns 0x61000000 (0000ms, 5728ms total)
T18C0 172:610 JLINK_ClrBPEx(BPHandle = 0x00000001)  returns 0x00 (0000ms, 5728ms total)
T18C0 172:610 JLINK_ReadMemU32(0xE000ED30, 0x0001 Items, ...) -- CPU_ReadMem(4 bytes @ 0xE000ED30) - Data: 02 00 00 00  returns 1 (0000ms, 5728ms total)
T18C0 172:610 JLINK_ReadMemU32(0xE0001028, 0x0001 Items, ...) -- CPU_ReadMem(4 bytes @ 0xE0001028) - Data: 00 00 00 00  returns 1 (0000ms, 5728ms total)
T18C0 172:610 JLINK_ReadMemU32(0xE0001038, 0x0001 Items, ...) -- CPU_ReadMem(4 bytes @ 0xE0001038) - Data: 00 02 00 00  returns 1 (0001ms, 5729ms total)
T18C0 172:611 JLINK_ReadMemU32(0xE0001048, 0x0001 Items, ...) -- CPU_ReadMem(4 bytes @ 0xE0001048) - Data: 00 00 00 00  returns 1 (0000ms, 5729ms total)
T18C0 172:611 JLINK_ReadMemU32(0xE0001058, 0x0001 Items, ...) -- CPU_ReadMem(4 bytes @ 0xE0001058) - Data: 00 00 00 00  returns 1 (0001ms, 5730ms total)
T18C0 172:612 JLINK_ReadReg(R0)  returns 0x20019080 (0000ms, 5730ms total)
T18C0 172:612 JLINK_ReadReg(R1)  returns 0x2001A080 (0000ms, 5730ms total)
T18C0 172:612 JLINK_ReadReg(R2)  returns 0x2001A080 (0000ms, 5730ms total)
T18C0 172:612 JLINK_ReadReg(R3)  returns 0x2001A080 (0000ms, 5730ms total)
T18C0 172:612 JLINK_ReadReg(R4)  returns 0x00000000 (0000ms, 5730ms total)
T18C0 172:612 JLINK_ReadReg(R5)  returns 0x2001901C (0000ms, 5730ms total)
T18C0 172:612 JLINK_ReadReg(R6)  returns 0x00000000 (0000ms, 5730ms total)
T18C0 172:612 JLINK_ReadReg(R7)  returns 0x00000000 (0000ms, 5730ms total)
T18C0 172:612 JLINK_ReadReg(R8)  returns 0x00000000 (0000ms, 5730ms total)
T18C0 172:612 JLINK_ReadReg(R9)  returns 0x00000000 (0000ms, 5730ms total)
T18C0 172:612 JLINK_ReadReg(R10)  returns 0x0800B3CC (0000ms, 5730ms total)
T18C0 172:612 JLINK_ReadReg(R11)  returns 0x00000000 (0000ms, 5730ms total)
T18C0 172:612 JLINK_ReadReg(R12)  returns 0x2001905C (0000ms, 5730ms total)
T18C0 172:612 JLINK_ReadReg(R13 (SP))  returns 0x2001C080 (0000ms, 5730ms total)
T18C0 172:612 JLINK_ReadReg(R14)  returns 0x080002E7 (0000ms, 5730ms total)
T18C0 172:612 JLINK_ReadReg(R15 (PC))  returns 0x08007C50 (0000ms, 5730ms total)
T18C0 172:612 JLINK_ReadReg(XPSR)  returns 0x61000000 (0000ms, 5730ms total)
T18C0 172:612 JLINK_ReadReg(MSP)  returns 0x2001C080 (0000ms, 5730ms total)
T18C0 172:612 JLINK_ReadReg(PSP)  returns 0x00000000 (0000ms, 5730ms total)
T18C0 172:612 JLINK_ReadReg(CFBP)  returns 0x04000000 (0000ms, 5730ms total)
T18C0 172:612 JLINK_ReadReg(FPSCR)  returns 0x03000000 (0003ms, 5733ms total)
T18C0 172:615 JLINK_ReadReg(FPS0)  returns 0x00000000 (0000ms, 5733ms total)
T18C0 172:615 JLINK_ReadReg(FPS1)  returns 0x00000000 (0000ms, 5733ms total)
T18C0 172:615 JLINK_ReadReg(FPS2)  returns 0x00000000 (0000ms, 5733ms total)
T18C0 172:615 JLINK_ReadReg(FPS3)  returns 0x00000000 (0000ms, 5733ms total)
T18C0 172:615 JLINK_ReadReg(FPS4)  returns 0x00000000 (0000ms, 5733ms total)
T18C0 172:615 JLINK_ReadReg(FPS5)  returns 0x00000000 (0000ms, 5733ms total)
T18C0 172:615 JLINK_ReadReg(FPS6)  returns 0x00000000 (0000ms, 5733ms total)
T18C0 172:615 JLINK_ReadReg(FPS7)  returns 0x00000000 (0000ms, 5733ms total)
T18C0 172:615 JLINK_ReadReg(FPS8)  returns 0x00000000 (0000ms, 5733ms total)
T18C0 172:615 JLINK_ReadReg(FPS9)  returns 0x00000000 (0000ms, 5733ms total)
T18C0 172:615 JLINK_ReadReg(FPS10)  returns 0x00000000 (0000ms, 5733ms total)
T18C0 172:615 JLINK_ReadReg(FPS11)  returns 0x00000000 (0000ms, 5733ms total)
T18C0 172:615 JLINK_ReadReg(FPS12)  returns 0x00000000 (0000ms, 5733ms total)
T18C0 172:615 JLINK_ReadReg(FPS13)  returns 0x00000000 (0000ms, 5733ms total)
T18C0 172:615 JLINK_ReadReg(FPS14)  returns 0x00000000 (0000ms, 5733ms total)
T18C0 172:615 JLINK_ReadReg(FPS15)  returns 0x00000000 (0000ms, 5733ms total)
T18C0 172:615 JLINK_ReadReg(FPS16)  returns 0x00000000 (0000ms, 5733ms total)
T18C0 172:615 JLINK_ReadReg(FPS17)  returns 0x00000000 (0000ms, 5733ms total)
T18C0 172:615 JLINK_ReadReg(FPS18)  returns 0x00000000 (0000ms, 5733ms total)
T18C0 172:615 JLINK_ReadReg(FPS19)  returns 0x00000000 (0000ms, 5733ms total)
T18C0 172:615 JLINK_ReadReg(FPS20)  returns 0x00000000 (0000ms, 5733ms total)
T18C0 172:615 JLINK_ReadReg(FPS21)  returns 0x00000000 (0000ms, 5733ms total)
T18C0 172:615 JLINK_ReadReg(FPS22)  returns 0x00000000 (0000ms, 5733ms total)
T18C0 172:615 JLINK_ReadReg(FPS23)  returns 0x00000000 (0000ms, 5733ms total)
T18C0 172:615 JLINK_ReadReg(FPS24)  returns 0x00000000 (0000ms, 5733ms total)
T18C0 172:615 JLINK_ReadReg(FPS25)  returns 0x00000000 (0000ms, 5733ms total)
T18C0 172:615 JLINK_ReadReg(FPS26)  returns 0x00000000 (0000ms, 5733ms total)
T18C0 172:615 JLINK_ReadReg(FPS27)  returns 0x00000000 (0000ms, 5733ms total)
T18C0 172:615 JLINK_ReadReg(FPS28)  returns 0x00000000 (0000ms, 5733ms total)
T18C0 172:615 JLINK_ReadReg(FPS29)  returns 0x00000000 (0000ms, 5733ms total)
T18C0 172:615 JLINK_ReadReg(FPS30)  returns 0x00000000 (0000ms, 5733ms total)
T18C0 172:615 JLINK_ReadReg(FPS31)  returns 0x00000000 (0000ms, 5733ms total)
T1530 172:617 JLINK_ReadMemEx(0x20000EDC, 0x000F Bytes, ..., Flags = 0x02000000) -- CPU_ReadMem(64 bytes @ 0x20000EC0) -- Updating C cache (64 bytes @ 0x20000EC0) -- Read from C cache (15 bytes @ 0x20000EDC) - Data: 00 00 00 00 00 00 00 00 00 00 00 00 00 00 00  returns 0x0F (0000ms, 5733ms total)
T1530 175:005 JLINK_ReadMemEx(0x2000007A, 0x0004 Bytes, ..., Flags = 0x02000000) -- CPU_ReadMem(64 bytes @ 0x20000040) -- Updating C cache (64 bytes @ 0x20000040) -- Read from C cache (4 bytes @ 0x2000007A) - Data: 00 00 00 00  returns 0x04 (0001ms, 5734ms total)
T1530 175:006 JLINK_ReadMemEx(0x2000007E, 0x0004 Bytes, ..., Flags = 0x02000000) -- CPU_ReadMem(64 bytes @ 0x20000080) -- Updating C cache (64 bytes @ 0x20000080) -- Read from C cache (4 bytes @ 0x2000007E) - Data: 00 00 00 00  returns 0x04 (0001ms, 5735ms total)
T18C0 176:937 JLINK_ReadMemEx(0x08007C50, 0x0002 Bytes, ..., Flags = 0x02000000) -- CPU_ReadMem(64 bytes @ 0x08007C40) -- Updating C cache (64 bytes @ 0x08007C40) -- Read from C cache (2 bytes @ 0x08007C50) - Data: 1C B5  returns 0x02 (0001ms, 5736ms total)
T18C0 176:938 JLINK_Go() -- CPU_ReadMem(4 bytes @ 0xE0001000) -- CPU_WriteMem(4 bytes @ 0xE0002008) (0001ms, 5737ms total)
T18C0 177:040 JLINK_IsHalted()  returns FALSE (0000ms, 5737ms total)
T18C0 177:140 JLINK_IsHalted()  returns FALSE (0000ms, 5737ms total)
T18C0 177:241 JLINK_IsHalted()  returns FALSE (0000ms, 5737ms total)
T18C0 177:342 JLINK_IsHalted()  returns FALSE (0001ms, 5738ms total)
T18C0 177:444 JLINK_IsHalted()  returns FALSE (0000ms, 5737ms total)
T18C0 177:544 JLINK_ReadMemU32(0xE0001004, 0x0001 Items, ...) -- CPU_ReadMem(4 bytes @ 0xE0001004) - Data: E3 95 7D 06  returns 1 (0001ms, 5738ms total)
T1530 177:545 JLINK_ReadMemEx(0x2000007A, 0x0004 Bytes, ..., Flags = 0x02000000) -- CPU_ReadMem(4 bytes @ 0x2000007A) - Data: 00 00 00 00  returns 0x04 (0000ms, 5738ms total)
T1530 177:545 JLINK_ReadMemEx(0x2000007E, 0x0004 Bytes, ..., Flags = 0x02000000) -- CPU_ReadMem(4 bytes @ 0x2000007E) - Data: 00 00 00 00  returns 0x04 (0000ms, 5738ms total)
T1530 177:546 JLINK_ReadMemEx(0x20000EDC, 0x000F Bytes, ..., Flags = 0x02000000) -- CPU_ReadMem(15 bytes @ 0x20000EDC) - Data: 00 00 00 00 00 00 00 00 00 00 00 00 00 00 00  returns 0x0F (0001ms, 5739ms total)
T18C0 177:547 JLINK_IsHalted()  returns FALSE (0000ms, 5739ms total)
T18C0 177:648 JLINK_IsHalted()  returns FALSE (0000ms, 5739ms total)
T18C0 177:750 JLINK_IsHalted()  returns FALSE (0000ms, 5739ms total)
T18C0 177:851 JLINK_IsHalted()  returns FALSE (0000ms, 5739ms total)
T18C0 177:952 JLINK_IsHalted()  returns FALSE (0000ms, 5739ms total)
T18C0 178:052 JLINK_IsHalted()  returns FALSE (0000ms, 5739ms total)
T18C0 178:153 JLINK_ReadMemU32(0xE0001004, 0x0001 Items, ...) - Data: E3 95 7D 06  returns 1 (0000ms, 5739ms total)
T1530 178:153 JLINK_ReadMemEx(0x2000007A, 0x0004 Bytes, ..., Flags = 0x02000000) -- CPU_ReadMem(4 bytes @ 0x2000007A) - Data: 00 00 00 00  returns 0x04 (0001ms, 5740ms total)
T1530 178:154 JLINK_ReadMemEx(0x2000007E, 0x0004 Bytes, ..., Flags = 0x02000000) -- CPU_ReadMem(4 bytes @ 0x2000007E) - Data: 00 00 00 00  returns 0x04 (0000ms, 5740ms total)
T1530 178:155 JLINK_ReadMemEx(0x20000EDC, 0x000F Bytes, ..., Flags = 0x02000000) -- CPU_ReadMem(15 bytes @ 0x20000EDC) - Data: 00 00 00 00 00 00 00 00 00 00 00 00 00 00 00  returns 0x0F (0001ms, 5741ms total)
T18C0 178:156 JLINK_IsHalted()  returns FALSE (0000ms, 5741ms total)
